T6B88 99819:741.184   SEGGER J-Link V8.78 Log File
T6B88 99819:749.376   DLL Compiled: Oct 16 2025 08:27:36
T6B88 99819:749.376   Logging started @ 2026-03-31 14:00
T6B88 99819:749.376   Process: C:\Program Files (x86)\Atmel\Studio\7.0\atbackend\atbackend.exe
T6B88 99819:749.376 - 72.736ms 
T6B88 99819:749.376 JLINK_ExecCommand("device = ATSAME51J18A", ...). 
T6B88 99819:749.376   Device "ATSAME51J18A" selected.
T6B88 99819:757.568 - 6.692ms returns 0x00
T6B88 99819:757.568 JLINK_GetHWStatus(...)
T6B88 99819:757.568 - 0.223ms returns 0
T6B88 99819:757.568 JLINK_ClrRESET()
T6B88 99819:757.568 - 0.278ms 
T6B88 99819:765.760 JLINK_SetRESET()
T6B88 99819:765.760 - 0.185ms 
T6B88 99819:765.760 JLINK_ClrRESET()
T6B88 99819:765.760 - 0.297ms 
T6B88 99819:765.760 JLINK_ClrTCK()
T6B88 99819:765.760 - 0.124ms returns 0
T6B88 99819:773.952 JLINK_SetRESET()
T6B88 99819:773.952 - 0.119ms 
T6B88 99819:782.144 JLINK_Clock()
T6B88 99819:782.144 - 0.187ms returns 1
T6B88 99819:790.336 JLINK_TIF_Select(JLINKARM_TIF_SWD)
T6B88 99819:790.336 - 0.635ms returns 0x00
T6B88 99819:790.336 JLINK_SetSpeed(50)
T6B88 99819:790.336 - 0.133ms 
T6B88 99819:790.336 JLINK_CORESIGHT_Configure()
T6B88 99819:798.528 - 9.730ms returns 0
T6B88 99819:798.528 JLINK_CORESIGHT_WriteAPDPReg(DP reg 0x02, 0x00000000)
T6B88 99819:798.528 - 1.496ms returns 0
T6B88 99819:798.528 JLINK_CORESIGHT_WriteAPDPReg(AP reg 0x00, 0x23000040)
T6B88 99819:798.528 - 1.298ms returns 0
T6B88 99819:798.528 JLINK_CORESIGHT_WriteAPDPReg(AP reg 0x01, 0x41002101)
T6B88 99819:798.528 - 1.565ms returns 0
T6B88 99819:798.528 JLINK_CORESIGHT_ReadAPDPReg(AP reg 0x03)
T6B88 99819:798.528   Value=0xEB5D027E
T6B88 99819:798.528 - 2.582ms returns 0
T6B88 99819:798.528 JLINK_CORESIGHT_WriteAPDPReg(AP reg 0x01, 0x41002100)
T6B88 99819:806.720 - 1.204ms returns 0
T6B88 99819:806.720 JLINK_CORESIGHT_WriteAPDPReg(AP reg 0x03, 0x00000010)
T6B88 99819:806.720 - 1.223ms returns 0
T6B88 99819:806.720 JLINK_CORESIGHT_WriteAPDPReg(AP reg 0x01, 0x41002101)
T6B88 99819:806.720 - 1.725ms returns 0
T6B88 99819:806.720 JLINK_CORESIGHT_ReadAPDPReg(AP reg 0x03)
T6B88 99819:806.720   Value=0x00000210
T6B88 99819:806.720 - 2.485ms returns 0
T6B88 99820:011.520 JLINK_CORESIGHT_ReadAPDPReg(AP reg 0x03)
T6B88 99820:011.520   Value=0x00000210
T6B88 99820:011.520 - 2.294ms returns 0
T6B88 99820:216.320 JLINK_CORESIGHT_ReadAPDPReg(AP reg 0x03)
T6B88 99820:216.320   Value=0x00000210
T6B88 99820:216.320 - 2.220ms returns 0
T6B88 99820:421.120 JLINK_CORESIGHT_ReadAPDPReg(AP reg 0x03)
T6B88 99820:421.120   Value=0x00000210
T6B88 99820:421.120 - 2.371ms returns 0
T6B88 99820:617.728 JLINK_CORESIGHT_ReadAPDPReg(AP reg 0x03)
T6B88 99820:617.728   Value=0x00000210
T6B88 99820:617.728 - 2.193ms returns 0
T6B88 99820:822.528 JLINK_CORESIGHT_ReadAPDPReg(AP reg 0x03)
T6B88 99820:822.528   Value=0x00000210
T6B88 99820:822.528 - 2.280ms returns 0
T6B88 99821:027.328 JLINK_CORESIGHT_ReadAPDPReg(AP reg 0x03)
T6B88 99821:027.328   Value=0x00000210
T6B88 99821:027.328 - 2.416ms returns 0
T6B88 99821:232.128 JLINK_CORESIGHT_ReadAPDPReg(AP reg 0x03)
T6B88 99821:232.128   Value=0x00000310
T6B88 99821:232.128 - 2.299ms returns 0
T6B88 99821:240.320 JLINK_ExecCommand("Device = ATSAME51J18A", ...). 
T6B88 99821:240.320   Device "ATSAME51J18A" selected.
T6B88 99821:240.320 - 5.876ms returns 0x00
T6B88 99821:240.320 JLINK_TIF_Select(JLINKARM_TIF_SWD)
T6B88 99821:240.320 - 0.010ms returns 0x00
T6B88 99821:240.320 JLINK_SetSpeed(4000)
T6B88 99821:240.320 - 0.247ms 
T6B88 99821:240.320 JLINK_ResetPullsRESET(OFF)
T6B88 99821:240.320 - 0.011ms 
T6B88 99821:240.320 JLINK_Connect()
T6B88 99821:240.320   InitTarget() start
T6B88 99821:240.320    J-Link Script File: Executing InitTarget()
T6B88 99821:240.320   SWD selected. Executing JTAG -> SWD switching sequence.
T6B88 99821:240.320   DAP initialized successfully.
T6B88 99821:248.512   InitTarget() end - Took 5.11ms
T6B88 99821:248.512   Found SW-DP with ID 0x2BA01477
T6B88 99821:248.512   DPIDR: 0x2BA01477
T6B88 99821:248.512   CoreSight SoC-400 or earlier
T6B88 99821:248.512   Scanning AP map to find all available APs
T6B88 99821:248.512   AP[2]: Stopped AP scan as end of AP map seems to be reached
T6B88 99821:248.512   AP[0]: AHB-AP (IDR: 0x24770011, ADDR: 0x00000000)
T6B88 99821:248.512   AP[1]: AHB-AP (IDR: 0x74770001, ADDR: 0x01000000)
T6B88 99821:248.512   Iterating through AP map to find AHB-AP to use
T6B88 99821:248.512   AP[0]: Core found
T6B88 99821:248.512   AP[0]: AHB-AP ROM base: 0x41003000
T6B88 99821:256.704   CPUID register: 0x410FC241. Implementer code: 0x41 (ARM)
T6B88 99821:256.704   Found Cortex-M4 r0p1, Little endian.
T6B88 99821:256.704   -- Max. mem block: 0x00002B48
T6B88 99821:256.704   CPU_ReadMem(4 bytes @ 0xE000EDF0)
T6B88 99821:256.704   CPU_ReadMem(4 bytes @ 0xE0002000)
T6B88 99821:256.704   FPUnit: 6 code (BP) slots and 2 literal slots
T6B88 99821:256.704   CPU_ReadMem(4 bytes @ 0xE000EDFC)
T6B88 99821:256.704   CPU_ReadMem(4 bytes @ 0xE0001000)
T6B88 99821:256.704   CPU_WriteMem(4 bytes @ 0xE0001000)
T6B88 99821:256.704   CPU_ReadMem(4 bytes @ 0xE000ED88)
T6B88 99821:256.704   CPU_WriteMem(4 bytes @ 0xE000ED88)
T6B88 99821:256.704   CPU_ReadMem(4 bytes @ 0xE000ED88)
T6B88 99821:256.704   CPU_WriteMem(4 bytes @ 0xE000ED88)
T6B88 99821:256.704   CoreSight components:
T6B88 99821:256.704   ROMTbl[0] @ 41003000
T6B88 99821:256.704   CPU_ReadMem(64 bytes @ 0x41003000)
T6B88 99821:256.704   CPU_ReadMem(32 bytes @ 0xE00FFFE0)
T6B88 99821:256.704   [0][0]: E00FF000 CID B105100D PID 000BB4C4 ROM Table
T6B88 99821:256.704   ROMTbl[1] @ E00FF000
T6B88 99821:256.704   CPU_ReadMem(64 bytes @ 0xE00FF000)
T6B88 99821:264.896   CPU_ReadMem(32 bytes @ 0xE000EFE0)
T6B88 99821:264.896   [1][0]: E000E000 CID B105E00D PID 000BB00C SCS-M7
T6B88 99821:264.896   CPU_ReadMem(32 bytes @ 0xE0001FE0)
T6B88 99821:264.896   [1][1]: E0001000 CID B105E00D PID 003BB002 DWT
T6B88 99821:264.896   CPU_ReadMem(32 bytes @ 0xE0002FE0)
T6B88 99821:264.896   [1][2]: E0002000 CID B105E00D PID 002BB003 FPB
T6B88 99821:264.896   CPU_ReadMem(32 bytes @ 0xE0000FE0)
T6B88 99821:264.896   [1][3]: E0000000 CID B105E00D PID 003BB001 ITM
T6B88 99821:264.896   CPU_ReadMem(32 bytes @ 0xE0040FE0)
T6B88 99821:264.896   [1][4]: E0040000 CID B105900D PID 000BB9A1 TPIU
T6B88 99821:264.896   CPU_ReadMem(32 bytes @ 0xE0041FE0)
T6B88 99821:264.896   [1][5]: E0041000 CID B105900D PID 000BB925 ETM
T6B88 99821:264.896   CPU_ReadMem(32 bytes @ 0xE0042FE0)
T6B88 99821:264.896   [1][6]: E0042000 CID B105900D PID 003BB907 ETB
T6B88 99821:264.896 - 21.956ms returns 0x00
T6B88 99821:264.896 JLINK_ExecCommand("ExcludeFlashCacheRange 0x0 - 0x40000", ...). 
T6B88 99821:264.896 - 0.001ms returns 0x00
T6B88 99821:264.896 JLINK_Halt()
T6B88 99821:273.088 - 2.911ms returns 0x00
T6B88 99821:273.088 JLINK_JTAG_GetDeviceID(DeviceIndex = 0)
T6B88 99821:273.088 - 0.018ms returns 0
T6B88 99821:273.088 JLINK_ReadMemU32(0x41002018, 0x1 Items)
T6B88 99821:273.088   CPU_ReadMem(4 bytes @ 0x41002018)
T6B88 99821:273.088   Data:  03 05 81 61
T6B88 99821:273.088 - 0.438ms returns 1 (0x1)
T909C 99821:281.280 JLINK_IsHalted()
T909C 99821:281.280 - 0.417ms returns TRUE
T909C 99821:281.280 JLINK_GetMOEs(...)
T909C 99821:281.280   CPU_ReadMem(4 bytes @ 0xE000ED30)
T909C 99821:281.280 - 0.448ms returns 0x01
T909C 99821:281.280 JLINK_ReadReg(R15 (PC))
T909C 99821:281.280 - 0.011ms returns 0xFFFFFFFE
T6B88 99821:314.048 JLINK_BeginDownload(Flags = 0x00000000)
T6B88 99821:314.048 - 0.040ms 
T6B88 99821:314.048 JLINK_WriteMem(0x00000000, 0x10938 Bytes, ...)
T6B88 99821:314.048   Data:  68 08 01 20 0D 33 00 00 D9 32 00 00 E5 32 00 00 ...
T6B88 99821:314.048   completely In flash
T6B88 99821:314.048 - 0.553ms returns 0x10938
T6B88 99821:314.048 JLINK_WriteMem(0x00010938, 0x8 Bytes, ...)
T6B88 99821:314.048   Data:  C0 DF FF 7F 01 00 00 00
T6B88 99821:314.048   completely In flash
T6B88 99821:314.048 - 0.052ms returns 0x8
T6B88 99821:314.048 JLINK_WriteMem(0x00010940, 0x91C Bytes, ...)
T6B88 99821:314.048   Data:  01 FF 02 00 00 00 00 00 00 00 00 00 00 00 00 00 ...
T6B88 99821:314.048   completely In flash
T6B88 99821:314.048 - 0.090ms returns 0x91C
T6B88 99821:314.048 JLINK_WriteMem(0x0001FF00, 0x100 Bytes, ...)
T6B88 99821:314.048   Data:  01 02 0F 00 AA BB CC DD 00 00 00 00 00 40 00 00 ...
T6B88 99821:314.048   completely In flash
T6B88 99821:314.048 - 0.034ms returns 0x100
T6B88 99821:338.624 JLINK_EndDownload()
T6B88 99821:338.624   CPU_ReadMem(4 bytes @ 0xE000ED90)
T6B88 99821:338.624   CPU_ReadMem(4 bytes @ 0xE000ED94)
T6B88 99821:338.624    -- --------------------------------------
T6B88 99821:338.624    -- Flash bank @ 0x00000000: Default: L2 verify disabled because algorithm performs L1 verify
T6B88 99821:338.624    -- Start of determining dirty areas in flash cache
T6B88 99821:338.624    -- Filling invalid ranges in sector buffer (flash cache) for sector @ 0x00000000 if necessary
T6B88 99821:338.624    -- Start of preparing flash programming
T6B88 99821:338.624    -- Calculating RAM usage
T6B88 99821:338.624    -- RAM usage = 10388 Bytes
T6B88 99821:338.624    -- Preserving CPU registers
T6B88 99821:338.624    -- Preparing target
T6B88 99821:338.624    -- Preserving target RAM temporarily used for programming
T6B88 99821:395.968    -- Downloading RAMCode
T6B88 99821:412.352    -- Preparing RAMCode
T6B88 99821:420.544    -- End of preparing flash programming
T6B88 99821:420.544   CPU_ReadMem(8192 bytes @ 0x00000000)
T6B88 99821:461.504    -- Updating flash cache (8192 bytes @ 0x00000000)
T6B88 99821:461.504    -- Updating flash cache invalid range 0x00000000 - 0x00001FFF (8192 bytes)
T6B88 99821:461.504    -- Filling invalid ranges in sector buffer (flash cache) for sector @ 0x00002000 if necessary
T6B88 99821:461.504   CPU_ReadMem(8192 bytes @ 0x00002000)
T6B88 99821:502.464    -- Updating flash cache (8192 bytes @ 0x00002000)
T6B88 99821:502.464    -- Updating flash cache invalid range 0x00002000 - 0x00003FFF (8192 bytes)
T6B88 99821:502.464    -- Filling invalid ranges in sector buffer (flash cache) for sector @ 0x00004000 if necessary
T6B88 99821:502.464   CPU_ReadMem(8192 bytes @ 0x00004000)
T6B88 99821:543.424    -- Updating flash cache (8192 bytes @ 0x00004000)
T6B88 99821:543.424    -- Updating flash cache invalid range 0x00004000 - 0x00005FFF (8192 bytes)
T6B88 99821:543.424    -- Filling invalid ranges in sector buffer (flash cache) for sector @ 0x00006000 if necessary
T6B88 99821:543.424   CPU_ReadMem(8192 bytes @ 0x00006000)
T6B88 99821:592.576    -- Updating flash cache (8192 bytes @ 0x00006000)
T6B88 99821:592.576    -- Updating flash cache invalid range 0x00006000 - 0x00007FFF (8192 bytes)
T6B88 99821:592.576    -- Filling invalid ranges in sector buffer (flash cache) for sector @ 0x00008000 if necessary
T6B88 99821:592.576   CPU_ReadMem(8192 bytes @ 0x00008000)
T6B88 99821:633.536    -- Updating flash cache (8192 bytes @ 0x00008000)
T6B88 99821:633.536    -- Updating flash cache invalid range 0x00008000 - 0x00009FFF (8192 bytes)
T6B88 99821:633.536    -- Filling invalid ranges in sector buffer (flash cache) for sector @ 0x0000A000 if necessary
T6B88 99821:633.536   CPU_ReadMem(8192 bytes @ 0x0000A000)
T6B88 99821:674.496    -- Updating flash cache (8192 bytes @ 0x0000A000)
T6B88 99821:674.496    -- Updating flash cache invalid range 0x0000A000 - 0x0000BFFF (8192 bytes)
T6B88 99821:674.496    -- Filling invalid ranges in sector buffer (flash cache) for sector @ 0x0000C000 if necessary
T6B88 99821:674.496   CPU_ReadMem(8192 bytes @ 0x0000C000)
T6B88 99821:723.648    -- Updating flash cache (8192 bytes @ 0x0000C000)
T6B88 99821:723.648    -- Updating flash cache invalid range 0x0000C000 - 0x0000DFFF (8192 bytes)
T6B88 99821:723.648    -- Filling invalid ranges in sector buffer (flash cache) for sector @ 0x0000E000 if necessary
T6B88 99821:723.648   CPU_ReadMem(8192 bytes @ 0x0000E000)
T6B88 99821:764.608    -- Updating flash cache (8192 bytes @ 0x0000E000)
T6B88 99821:764.608    -- Updating flash cache invalid range 0x0000E000 - 0x0000FFFF (8192 bytes)
T6B88 99821:764.608    -- Filling invalid ranges in sector buffer (flash cache) for sector @ 0x00010000 if necessary
T6B88 99821:764.608   CPU_ReadMem(8192 bytes @ 0x00010000)
T6B88 99821:805.568    -- Updating flash cache (8192 bytes @ 0x00010000)
T6B88 99821:805.568    -- Updating flash cache invalid range 0x00010000 - 0x00011FFF (8192 bytes)
T6B88 99821:805.568    -- Filling invalid ranges in sector buffer (flash cache) for sector @ 0x0001E000 if necessary
T6B88 99821:805.568   CPU_ReadMem(8192 bytes @ 0x0001E000)
T6B88 99821:854.720    -- Updating flash cache (8192 bytes @ 0x0001E000)
T6B88 99821:854.720    -- Updating flash cache invalid range 0x0001E000 - 0x0001FFFF (8192 bytes)
T6B88 99821:854.720    -- End of determining dirty areas
T6B88 99821:854.720    -- CPU speed could not be measured.
T6B88 99821:854.720    -- Start of comparing flash
T6B88 99821:854.720    -- CRC check was estimated as fastest method
T6B88 99821:895.680    -- Comparing range 0x0000 - 0x11FFF (9 Sectors, 72 KB), using multi-block CRC calculation
T6B88 99821:903.872    -- CRC does not match for sectors 0-8
T6B88 99821:903.872    -- Comparing range 0x1E000 - 0x1FFFF (1 Sector, 8 KB), using multi-block CRC calculation
T6B88 99821:912.064    -- CRC does not match for sector 0
T6B88 99821:912.064    -- End of comparing flash
T6B88 99821:912.064    -- Start of erasing sectors
T6B88 99821:912.064    -- End of erasing sectors
T6B88 99821:912.064    -- Start of flash programming
T6B88 99821:912.064    -- Programming range 0x00000000 - 0x00007FFF (  4 Sectors, 32 KB)
T6B88 99822:075.904    -- Programming range 0x00008000 - 0x0000FFFF (  4 Sectors, 32 KB)
T6B88 99822:272.512    -- Programming range 0x00010000 - 0x00011FFF (  1 Sector, 8 KB)
T6B88 99822:321.664    -- Programming range 0x0001E000 - 0x0001FFFF (  1 Sector, 8 KB)
T6B88 99822:346.240    -- End of flash programming
T6B88 99822:346.240    -- 0x0000 - 0x11FFF (  9 Sectors, 72 KB)
T6B88 99822:346.240    -- 0x1E000 - 0x1FFFF (  1 Sector, 8 KB)
T6B88 99822:346.240    -- Start of restoring
T6B88 99822:346.240    -- Restoring RAMCode
T6B88 99822:379.008    -- Restoring target memory
T6B88 99822:428.160    -- Restore target
T6B88 99822:428.160    -- Restoring CPU registers
T6B88 99822:428.160    -- End of restoring
T6B88 99822:428.160    -- Bank 0 @ 0x00000000: 2 ranges affected (81920 bytes)
T6B88 99822:428.160    -- Total: 1.093s (Prepare: 0.518s, Compare: 0.054s, Erase: 0.000s, Program & Verify: 0.463s, Restore: 0.056s)
T6B88 99822:428.160    -- Program & Verify speed: 172 KB/s
T6B88 99822:444.544 - 1108.727ms returns 81920 (0x14000)
T6B88 99822:444.544 JLINK_SetResetType(JLINKARM_CM3_RESET_TYPE_NORMAL)
T6B88 99822:444.544 - 0.043ms returns JLINKARM_CM3_RESET_TYPE_NORMAL
T6B88 99822:444.544 JLINK_Reset()
T6B88 99822:444.544   JLINK_GetResetTypeDesc
T6B88 99822:444.544   - 0.008ms 
T6B88 99822:444.544   Reset type: NORMAL (https://wiki.segger.com/J-Link_Reset_Strategies)
T6B88 99822:444.544   CPU_WriteMem(4 bytes @ 0xE000EDF0)
T6B88 99822:444.544   CPU_WriteMem(4 bytes @ 0xE000EDFC)
T6B88 99822:452.736   Reset: Halt core after reset via DEMCR.VC_CORERESET.
T6B88 99822:452.736   Reset: Reset device via AIRCR.SYSRESETREQ.
T6B88 99822:452.736   CPU_WriteMem(4 bytes @ 0xE000ED0C)
T6B88 99822:501.888   CPU_ReadMem(4 bytes @ 0xE000EDF0)
T6B88 99822:501.888   CPU_ReadMem(4 bytes @ 0xE000EDF0)
T6B88 99822:501.888   CPU_WriteMem(4 bytes @ 0xE000EDFC)
T6B88 99822:510.080   CPU_ReadMem(4 bytes @ 0xE000EDF0)
T6B88 99822:518.272   CPU_WriteMem(4 bytes @ 0xE0002000)
T6B88 99822:518.272   CPU_ReadMem(4 bytes @ 0xE000EDFC)
T6B88 99822:518.272   CPU_ReadMem(4 bytes @ 0xE0001000)
T6B88 99822:518.272 - 68.138ms 
T1038 99822:624.768 JLINK_Halt()
T1038 99822:624.768 - 0.036ms returns 0x00
T1038 99822:624.768 JLINK_ReadReg(R15 (PC))
T1038 99822:624.768 - 0.010ms returns 0x0000330C
T1038 99822:624.768 JLINK_ReadReg(R13 (SP))
T1038 99822:624.768 - 0.009ms returns 0x20010868
T1038 99822:624.768 JLINK_ReadMemHW(0x0000330C, 0x0004 Bytes, ...)
T1038 99822:624.768   CPU_ReadMem(4 bytes @ 0x0000330C)
T1038 99822:624.768   Data:  17 49 18 48
T1038 99822:624.768 - 0.483ms returns 0
T1038 99822:632.960 JLINK_ReadReg(R0)
T1038 99822:632.960 - 0.014ms returns 0x40002000
T1038 99822:632.960 JLINK_ReadReg(R1)
T1038 99822:632.960 - 0.008ms returns 0x00000000
T1038 99822:632.960 JLINK_ReadReg(R2)
T1038 99822:632.960 - 0.008ms returns 0x00000000
T1038 99822:632.960 JLINK_ReadReg(R3)
T1038 99822:632.960 - 0.008ms returns 0x0001F000
T1038 99822:632.960 JLINK_ReadReg(R4)
T1038 99822:632.960 - 0.008ms returns 0x20000804
T1038 99822:632.960 JLINK_ReadReg(R5)
T1038 99822:632.960 - 0.008ms returns 0x2000085C
T1038 99822:632.960 JLINK_ReadReg(R6)
T1038 99822:632.960 - 0.008ms returns 0x2000085C
T1038 99822:632.960 JLINK_ReadReg(R7)
T1038 99822:632.960 - 0.008ms returns 0xE000ED04
T1038 99822:632.960 JLINK_ReadReg(R8)
T1038 99822:632.960 - 0.008ms returns 0xA5A5A5A5
T1038 99822:632.960 JLINK_ReadReg(R9)
T1038 99822:632.960 - 0.008ms returns 0xA5A5A5A5
T1038 99822:632.960 JLINK_ReadReg(R10)
T1038 99822:632.960 - 0.008ms returns 0xA5A5A5A5
T1038 99822:632.960 JLINK_ReadReg(R11)
T1038 99822:632.960 - 0.008ms returns 0xA5A5A5A5
T1038 99822:632.960 JLINK_ReadReg(R12)
T1038 99822:632.960 - 0.009ms returns 0x20000788
T1038 99822:632.960 JLINK_ReadReg(R13 (SP))
T1038 99822:632.960 - 0.009ms returns 0x20010868
T1038 99822:632.960 JLINK_ReadReg(R14)
T1038 99822:632.960 - 0.008ms returns 0xFFFFFFFF
T1038 99822:632.960 JLINK_ReadReg(R15 (PC))
T1038 99822:632.960 - 0.008ms returns 0x0000330C
T1038 99822:632.960 JLINK_ReadReg(XPSR)
T1038 99822:632.960 - 0.008ms returns 0x01000000
T1038 99822:632.960 JLINK_ReadReg(MSP)
T1038 99822:632.960 - 0.008ms returns 0x20010868
T1038 99822:632.960 JLINK_ReadReg(PSP)
T1038 99822:632.960 - 0.008ms returns 0x20006C70
T1038 99822:632.960 JLINK_ReadReg(PRIMASK)
T1038 99822:632.960 - 0.008ms returns 0x00000000
T1038 99822:632.960 JLINK_ReadReg(BASEPRI)
T1038 99822:632.960 - 0.008ms returns 0x00000000
T1038 99822:632.960 JLINK_ReadReg(FAULTMASK)
T1038 99822:632.960 - 0.008ms returns 0x00000000
T1038 99822:632.960 JLINK_ReadReg(CONTROL)
T1038 99822:632.960 - 0.008ms returns 0x00000000
T1038 99822:632.960 JLINK_ReadReg(FPSCR)
T1038 99822:632.960 - 4.792ms returns 0x00000000
T1038 99822:632.960 JLINK_ReadReg(FPS0)
T1038 99822:632.960 - 0.009ms returns 0x1651C000
T1038 99822:632.960 JLINK_ReadReg(FPS1)
T1038 99822:632.960 - 0.008ms returns 0x22408100
T1038 99822:632.960 JLINK_ReadReg(FPS2)
T1038 99822:632.960 - 0.008ms returns 0x28044000
T1038 99822:632.960 JLINK_ReadReg(FPS3)
T1038 99822:632.960 - 0.008ms returns 0x10809250
T1038 99822:632.960 JLINK_ReadReg(FPS4)
T1038 99822:632.960 - 0.008ms returns 0x28A20039
T1038 99822:632.960 JLINK_ReadReg(FPS5)
T1038 99822:632.960 - 0.008ms returns 0x2CD47523
T1038 99822:632.960 JLINK_ReadReg(FPS6)
T1038 99822:632.960 - 0.008ms returns 0x48A46005
T1038 99822:632.960 JLINK_ReadReg(FPS7)
T1038 99822:632.960 - 0.008ms returns 0x8588AE64
T1038 99822:632.960 JLINK_ReadReg(FPS8)
T1038 99822:632.960 - 0.008ms returns 0x5D200944
T1038 99822:632.960 JLINK_ReadReg(FPS9)
T1038 99822:632.960 - 0.009ms returns 0x8544B014
T1038 99822:632.960 JLINK_ReadReg(FPS10)
T1038 99822:632.960 - 0.008ms returns 0xC041F480
T1038 99822:632.960 JLINK_ReadReg(FPS11)
T1038 99822:632.960 - 0.007ms returns 0x0A921000
T1038 99822:632.960 JLINK_ReadReg(FPS12)
T1038 99822:632.960 - 0.008ms returns 0x01080146
T1038 99822:632.960 JLINK_ReadReg(FPS13)
T1038 99822:632.960 - 0.008ms returns 0x18829A44
T1038 99822:632.960 JLINK_ReadReg(FPS14)
T1038 99822:632.960 - 0.008ms returns 0x6390000C
T1038 99822:632.960 JLINK_ReadReg(FPS15)
T1038 99822:632.960 - 0.008ms returns 0x00488042
T1038 99822:632.960 JLINK_ReadReg(FPS16)
T1038 99822:632.960 - 0.007ms returns 0x28100430
T1038 99822:632.960 JLINK_ReadReg(FPS17)
T1038 99822:632.960 - 0.008ms returns 0x22055209
T1038 99822:632.960 JLINK_ReadReg(FPS18)
T1038 99822:632.960 - 0.008ms returns 0x853608A4
T1038 99822:632.960 JLINK_ReadReg(FPS19)
T1038 99822:632.960 - 0.008ms returns 0x39260090
T1038 99822:632.960 JLINK_ReadReg(FPS20)
T1038 99822:632.960 - 0.010ms returns 0x40B1CC80
T1038 99822:632.960 JLINK_ReadReg(FPS21)
T1038 99822:632.960 - 0.008ms returns 0x30D48049
T1038 99822:632.960 JLINK_ReadReg(FPS22)
T1038 99822:632.960 - 0.008ms returns 0x5E238201
T1038 99822:632.960 JLINK_ReadReg(FPS23)
T1038 99822:632.960 - 0.008ms returns 0x2004002C
T1038 99822:632.960 JLINK_ReadReg(FPS24)
T1038 99822:632.960 - 0.008ms returns 0x50343129
T1038 99822:632.960 JLINK_ReadReg(FPS25)
T1038 99822:632.960 - 0.008ms returns 0x8D828005
T1038 99822:632.960 JLINK_ReadReg(FPS26)
T1038 99822:632.960 - 0.008ms returns 0x90800810
T1038 99822:632.960 JLINK_ReadReg(FPS27)
T1038 99822:632.960 - 0.008ms returns 0x815173E3
T1038 99822:632.960 JLINK_ReadReg(FPS28)
T1038 99822:632.960 - 0.008ms returns 0x08DE4104
T1038 99822:632.960 JLINK_ReadReg(FPS29)
T1038 99822:632.960 - 0.008ms returns 0x22841370
T1038 99822:632.960 JLINK_ReadReg(FPS30)
T1038 99822:632.960 - 0.008ms returns 0xD08048A8
T1038 99822:632.960 JLINK_ReadReg(FPS31)
T1038 99822:632.960 - 0.008ms returns 0xC8010108
T1038 99822:632.960 JLINK_ReadMemHW(0x0000330C, 0x0002 Bytes, ...)
T1038 99822:632.960   CPU_ReadMem(2 bytes @ 0x0000330C)
T1038 99822:641.152   Data:  17 49
T1038 99822:641.152 - 0.385ms returns 0
T1038 99822:682.112 JLINK_ReadReg(R0)
T1038 99822:682.112 - 0.047ms returns 0x40002000
T1038 99822:682.112 JLINK_ReadReg(R1)
T1038 99822:682.112 - 0.008ms returns 0x00000000
T1038 99822:682.112 JLINK_ReadReg(R2)
T1038 99822:682.112 - 0.009ms returns 0x00000000
T1038 99822:682.112 JLINK_ReadReg(R3)
T1038 99822:682.112 - 0.008ms returns 0x0001F000
T1038 99822:682.112 JLINK_ReadReg(R4)
T1038 99822:682.112 - 0.008ms returns 0x20000804
T1038 99822:682.112 JLINK_ReadReg(R5)
T1038 99822:682.112 - 0.008ms returns 0x2000085C
T1038 99822:682.112 JLINK_ReadReg(R6)
T1038 99822:682.112 - 0.008ms returns 0x2000085C
T1038 99822:682.112 JLINK_ReadReg(R7)
T1038 99822:682.112 - 0.008ms returns 0xE000ED04
T1038 99822:682.112 JLINK_ReadReg(R8)
T1038 99822:682.112 - 0.008ms returns 0xA5A5A5A5
T1038 99822:682.112 JLINK_ReadReg(R9)
T1038 99822:682.112 - 0.008ms returns 0xA5A5A5A5
T1038 99822:682.112 JLINK_ReadReg(R10)
T1038 99822:682.112 - 0.008ms returns 0xA5A5A5A5
T1038 99822:682.112 JLINK_ReadReg(R11)
T1038 99822:682.112 - 0.008ms returns 0xA5A5A5A5
T1038 99822:682.112 JLINK_ReadReg(R12)
T1038 99822:682.112 - 0.008ms returns 0x20000788
T1038 99822:682.112 JLINK_ReadReg(R13 (SP))
T1038 99822:682.112 - 0.009ms returns 0x20010868
T1038 99822:682.112 JLINK_ReadReg(R14)
T1038 99822:682.112 - 0.008ms returns 0xFFFFFFFF
T1038 99822:682.112 JLINK_ReadReg(R15 (PC))
T1038 99822:682.112 - 0.022ms returns 0x0000330C
T1038 99822:682.112 JLINK_ReadReg(XPSR)
T1038 99822:682.112 - 0.008ms returns 0x01000000
T1038 99822:682.112 JLINK_ReadReg(MSP)
T1038 99822:682.112 - 0.008ms returns 0x20010868
T1038 99822:682.112 JLINK_ReadReg(PSP)
T1038 99822:682.112 - 0.008ms returns 0x20006C70
T1038 99822:682.112 JLINK_ReadReg(PRIMASK)
T1038 99822:682.112 - 0.008ms returns 0x00000000
T1038 99822:682.112 JLINK_ReadReg(BASEPRI)
T1038 99822:682.112 - 0.008ms returns 0x00000000
T1038 99822:682.112 JLINK_ReadReg(FAULTMASK)
T1038 99822:682.112 - 0.008ms returns 0x00000000
T1038 99822:682.112 JLINK_ReadReg(CONTROL)
T1038 99822:682.112 - 0.009ms returns 0x00000000
T1038 99822:682.112 JLINK_ReadReg(FPSCR)
T1038 99822:682.112 - 0.008ms returns 0x00000000
T1038 99822:682.112 JLINK_ReadReg(FPS0)
T1038 99822:682.112 - 0.008ms returns 0x1651C000
T1038 99822:682.112 JLINK_ReadReg(FPS1)
T1038 99822:682.112 - 0.008ms returns 0x22408100
T1038 99822:682.112 JLINK_ReadReg(FPS2)
T1038 99822:682.112 - 0.008ms returns 0x28044000
T1038 99822:682.112 JLINK_ReadReg(FPS3)
T1038 99822:682.112 - 0.008ms returns 0x10809250
T1038 99822:682.112 JLINK_ReadReg(FPS4)
T1038 99822:682.112 - 0.008ms returns 0x28A20039
T1038 99822:682.112 JLINK_ReadReg(FPS5)
T1038 99822:682.112 - 0.008ms returns 0x2CD47523
T1038 99822:682.112 JLINK_ReadReg(FPS6)
T1038 99822:682.112 - 0.008ms returns 0x48A46005
T1038 99822:682.112 JLINK_ReadReg(FPS7)
T1038 99822:682.112 - 0.008ms returns 0x8588AE64
T1038 99822:682.112 JLINK_ReadReg(FPS8)
T1038 99822:682.112 - 0.008ms returns 0x5D200944
T1038 99822:682.112 JLINK_ReadReg(FPS9)
T1038 99822:682.112 - 0.008ms returns 0x8544B014
T1038 99822:682.112 JLINK_ReadReg(FPS10)
T1038 99822:682.112 - 0.008ms returns 0xC041F480
T1038 99822:682.112 JLINK_ReadReg(FPS11)
T1038 99822:682.112 - 0.008ms returns 0x0A921000
T1038 99822:682.112 JLINK_ReadReg(FPS12)
T1038 99822:682.112 - 0.008ms returns 0x01080146
T1038 99822:682.112 JLINK_ReadReg(FPS13)
T1038 99822:682.112 - 0.008ms returns 0x18829A44
T1038 99822:682.112 JLINK_ReadReg(FPS14)
T1038 99822:682.112 - 0.008ms returns 0x6390000C
T1038 99822:682.112 JLINK_ReadReg(FPS15)
T1038 99822:682.112 - 0.008ms returns 0x00488042
T1038 99822:682.112 JLINK_ReadReg(FPS16)
T1038 99822:682.112 - 0.008ms returns 0x28100430
T1038 99822:682.112 JLINK_ReadReg(FPS17)
T1038 99822:682.112 - 0.008ms returns 0x22055209
T1038 99822:682.112 JLINK_ReadReg(FPS18)
T1038 99822:682.112 - 0.008ms returns 0x853608A4
T1038 99822:682.112 JLINK_ReadReg(FPS19)
T1038 99822:682.112 - 0.008ms returns 0x39260090
T1038 99822:682.112 JLINK_ReadReg(FPS20)
T1038 99822:682.112 - 0.008ms returns 0x40B1CC80
T1038 99822:682.112 JLINK_ReadReg(FPS21)
T1038 99822:682.112 - 0.008ms returns 0x30D48049
T1038 99822:682.112 JLINK_ReadReg(FPS22)
T1038 99822:682.112 - 0.008ms returns 0x5E238201
T1038 99822:682.112 JLINK_ReadReg(FPS23)
T1038 99822:682.112 - 0.008ms returns 0x2004002C
T1038 99822:682.112 JLINK_ReadReg(FPS24)
T1038 99822:682.112 - 0.008ms returns 0x50343129
T1038 99822:682.112 JLINK_ReadReg(FPS25)
T1038 99822:682.112 - 0.008ms returns 0x8D828005
T1038 99822:682.112 JLINK_ReadReg(FPS26)
T1038 99822:682.112 - 0.008ms returns 0x90800810
T1038 99822:682.112 JLINK_ReadReg(FPS27)
T1038 99822:682.112 - 0.008ms returns 0x815173E3
T1038 99822:682.112 JLINK_ReadReg(FPS28)
T1038 99822:682.112 - 0.008ms returns 0x08DE4104
T1038 99822:682.112 JLINK_ReadReg(FPS29)
T1038 99822:682.112 - 0.008ms returns 0x22841370
T1038 99822:682.112 JLINK_ReadReg(FPS30)
T1038 99822:682.112 - 0.008ms returns 0xD08048A8
T1038 99822:682.112 JLINK_ReadReg(FPS31)
T1038 99822:682.112 - 0.008ms returns 0xC8010108
T909C 99822:690.304 JLINK_IsHalted()
T909C 99822:690.304 - 0.027ms returns TRUE
T1038 99822:714.880 JLINK_ReadMemHW(0x0000330C, 0x0004 Bytes, ...)
T1038 99822:714.880   CPU_ReadMem(4 bytes @ 0x0000330C)
T1038 99822:714.880   Data:  17 49 18 48
T1038 99822:714.880 - 0.544ms returns 0
T1038 99822:780.416 JLINK_SetResetType(JLINKARM_CM3_RESET_TYPE_NORMAL)
T1038 99822:780.416 - 0.048ms returns JLINKARM_CM3_RESET_TYPE_NORMAL
T1038 99822:780.416 JLINK_Reset()
T1038 99822:780.416   JLINK_GetResetTypeDesc
T1038 99822:780.416   - 0.009ms 
T1038 99822:780.416   Reset type: NORMAL (https://wiki.segger.com/J-Link_Reset_Strategies)
T1038 99822:780.416   CPU_WriteMem(4 bytes @ 0xE000EDF0)
T1038 99822:780.416   CPU_WriteMem(4 bytes @ 0xE000EDFC)
T1038 99822:780.416   Reset: Halt core after reset via DEMCR.VC_CORERESET.
T1038 99822:780.416   Reset: Reset device via AIRCR.SYSRESETREQ.
T1038 99822:780.416   CPU_WriteMem(4 bytes @ 0xE000ED0C)
T1038 99822:837.760   CPU_ReadMem(4 bytes @ 0xE000EDF0)
T1038 99822:837.760   CPU_ReadMem(4 bytes @ 0xE000EDF0)
T1038 99822:837.760   CPU_WriteMem(4 bytes @ 0xE000EDFC)
T1038 99822:845.952   CPU_ReadMem(4 bytes @ 0xE000EDF0)
T1038 99822:845.952   CPU_WriteMem(4 bytes @ 0xE0002000)
T1038 99822:845.952   CPU_ReadMem(4 bytes @ 0xE000EDFC)
T1038 99822:845.952   CPU_ReadMem(4 bytes @ 0xE0001000)
T1038 99822:845.952 - 68.712ms 
T909C 99822:845.952 JLINK_IsHalted()
T909C 99822:845.952 - 0.025ms returns TRUE
T909C 99822:845.952 JLINK_GetMOEs(...)
T909C 99822:845.952   CPU_ReadMem(4 bytes @ 0xE000ED30)
T909C 99822:845.952 - 0.351ms returns 0x01
T909C 99822:845.952 JLINK_ReadReg(R15 (PC))
T909C 99822:845.952 - 0.010ms returns 0x0000330C
T1038 99822:854.144 JLINK_ReadReg(R15 (PC))
T1038 99822:854.144 - 0.026ms returns 0x0000330C
T1038 99822:854.144 JLINK_ReadReg(R13 (SP))
T1038 99822:854.144 - 0.008ms returns 0x20010868
T1038 99822:854.144 JLINK_ReadMemHW(0x0000330C, 0x0004 Bytes, ...)
T1038 99822:854.144   CPU_ReadMem(4 bytes @ 0x0000330C)
T1038 99822:854.144   Data:  17 49 18 48
T1038 99822:854.144 - 0.556ms returns 0
T1038 99822:886.912 JLINK_ReadReg(R0)
T1038 99822:886.912 - 0.045ms returns 0x40002000
T1038 99822:886.912 JLINK_ReadReg(R1)
T1038 99822:886.912 - 0.008ms returns 0x00000000
T1038 99822:886.912 JLINK_ReadReg(R2)
T1038 99822:886.912 - 0.008ms returns 0x00000000
T1038 99822:886.912 JLINK_ReadReg(R3)
T1038 99822:886.912 - 0.008ms returns 0x0001F000
T1038 99822:886.912 JLINK_ReadReg(R4)
T1038 99822:886.912 - 0.008ms returns 0x20000804
T1038 99822:886.912 JLINK_ReadReg(R5)
T1038 99822:886.912 - 0.008ms returns 0x2000085C
T1038 99822:886.912 JLINK_ReadReg(R6)
T1038 99822:886.912 - 0.008ms returns 0x2000085C
T1038 99822:886.912 JLINK_ReadReg(R7)
T1038 99822:886.912 - 0.008ms returns 0xE000ED04
T1038 99822:886.912 JLINK_ReadReg(R8)
T1038 99822:886.912 - 0.008ms returns 0xA5A5A5A5
T1038 99822:886.912 JLINK_ReadReg(R9)
T1038 99822:886.912 - 0.008ms returns 0xA5A5A5A5
T1038 99822:886.912 JLINK_ReadReg(R10)
T1038 99822:886.912 - 0.008ms returns 0xA5A5A5A5
T1038 99822:886.912 JLINK_ReadReg(R11)
T1038 99822:886.912 - 0.008ms returns 0xA5A5A5A5
T1038 99822:886.912 JLINK_ReadReg(R12)
T1038 99822:886.912 - 0.008ms returns 0x20000788
T1038 99822:886.912 JLINK_ReadReg(R13 (SP))
T1038 99822:886.912 - 0.009ms returns 0x20010868
T1038 99822:886.912 JLINK_ReadReg(R14)
T1038 99822:886.912 - 0.008ms returns 0xFFFFFFFF
T1038 99822:886.912 JLINK_ReadReg(R15 (PC))
T1038 99822:886.912 - 0.008ms returns 0x0000330C
T1038 99822:886.912 JLINK_ReadReg(XPSR)
T1038 99822:886.912 - 0.009ms returns 0x01000000
T1038 99822:886.912 JLINK_ReadReg(MSP)
T1038 99822:886.912 - 0.008ms returns 0x20010868
T1038 99822:886.912 JLINK_ReadReg(PSP)
T1038 99822:886.912 - 0.008ms returns 0x20006C70
T1038 99822:886.912 JLINK_ReadReg(PRIMASK)
T1038 99822:886.912 - 0.008ms returns 0x00000000
T1038 99822:886.912 JLINK_ReadReg(BASEPRI)
T1038 99822:886.912 - 0.008ms returns 0x00000000
T1038 99822:886.912 JLINK_ReadReg(FAULTMASK)
T1038 99822:886.912 - 0.008ms returns 0x00000000
T1038 99822:886.912 JLINK_ReadReg(CONTROL)
T1038 99822:886.912 - 0.008ms returns 0x00000000
T1038 99822:886.912 JLINK_ReadReg(FPSCR)
T1038 99822:895.104 - 4.931ms returns 0x00000000
T1038 99822:895.104 JLINK_ReadReg(FPS0)
T1038 99822:895.104 - 0.009ms returns 0x1651C000
T1038 99822:895.104 JLINK_ReadReg(FPS1)
T1038 99822:895.104 - 0.008ms returns 0x22408100
T1038 99822:895.104 JLINK_ReadReg(FPS2)
T1038 99822:895.104 - 0.007ms returns 0x28044000
T1038 99822:895.104 JLINK_ReadReg(FPS3)
T1038 99822:895.104 - 0.008ms returns 0x10809250
T1038 99822:895.104 JLINK_ReadReg(FPS4)
T1038 99822:895.104 - 0.008ms returns 0x28A20039
T1038 99822:895.104 JLINK_ReadReg(FPS5)
T1038 99822:895.104 - 0.008ms returns 0x2CD47523
T1038 99822:895.104 JLINK_ReadReg(FPS6)
T1038 99822:895.104 - 0.008ms returns 0x48A46005
T1038 99822:895.104 JLINK_ReadReg(FPS7)
T1038 99822:895.104 - 0.007ms returns 0x8588AE64
T1038 99822:895.104 JLINK_ReadReg(FPS8)
T1038 99822:895.104 - 0.007ms returns 0x5D200944
T1038 99822:895.104 JLINK_ReadReg(FPS9)
T1038 99822:895.104 - 0.008ms returns 0x8544B014
T1038 99822:895.104 JLINK_ReadReg(FPS10)
T1038 99822:895.104 - 0.007ms returns 0xC041F480
T1038 99822:895.104 JLINK_ReadReg(FPS11)
T1038 99822:895.104 - 0.007ms returns 0x0A921000
T1038 99822:895.104 JLINK_ReadReg(FPS12)
T1038 99822:895.104 - 0.008ms returns 0x01080146
T1038 99822:895.104 JLINK_ReadReg(FPS13)
T1038 99822:895.104 - 0.007ms returns 0x18829A44
T1038 99822:895.104 JLINK_ReadReg(FPS14)
T1038 99822:895.104 - 0.008ms returns 0x6390000C
T1038 99822:895.104 JLINK_ReadReg(FPS15)
T1038 99822:895.104 - 0.007ms returns 0x00488042
T1038 99822:895.104 JLINK_ReadReg(FPS16)
T1038 99822:895.104 - 0.007ms returns 0x28100430
T1038 99822:895.104 JLINK_ReadReg(FPS17)
T1038 99822:895.104 - 0.052ms returns 0x22055209
T1038 99822:895.104 JLINK_ReadReg(FPS18)
T1038 99822:895.104 - 0.008ms returns 0x853608A4
T1038 99822:895.104 JLINK_ReadReg(FPS19)
T1038 99822:895.104 - 0.007ms returns 0x39260090
T1038 99822:895.104 JLINK_ReadReg(FPS20)
T1038 99822:895.104 - 0.007ms returns 0x40B1CC80
T1038 99822:895.104 JLINK_ReadReg(FPS21)
T1038 99822:895.104 - 0.008ms returns 0x30D48049
T1038 99822:895.104 JLINK_ReadReg(FPS22)
T1038 99822:895.104 - 0.007ms returns 0x5E238201
T1038 99822:895.104 JLINK_ReadReg(FPS23)
T1038 99822:895.104 - 0.007ms returns 0x2004002C
T1038 99822:895.104 JLINK_ReadReg(FPS24)
T1038 99822:895.104 - 0.008ms returns 0x50343129
T1038 99822:895.104 JLINK_ReadReg(FPS25)
T1038 99822:895.104 - 0.008ms returns 0x8D828005
T1038 99822:895.104 JLINK_ReadReg(FPS26)
T1038 99822:895.104 - 0.008ms returns 0x90800810
T1038 99822:895.104 JLINK_ReadReg(FPS27)
T1038 99822:895.104 - 0.008ms returns 0x815173E3
T1038 99822:895.104 JLINK_ReadReg(FPS28)
T1038 99822:895.104 - 0.007ms returns 0x08DE4104
T1038 99822:895.104 JLINK_ReadReg(FPS29)
T1038 99822:895.104 - 0.008ms returns 0x22841370
T1038 99822:895.104 JLINK_ReadReg(FPS30)
T1038 99822:895.104 - 0.007ms returns 0xD08048A8
T1038 99822:895.104 JLINK_ReadReg(FPS31)
T1038 99822:895.104 - 0.008ms returns 0xC8010108
T1038 99822:895.104 JLINK_ReadMemHW(0x00000000, 0x0002 Bytes, ...)
T1038 99822:895.104   CPU_ReadMem(2 bytes @ 0x00000000)
T1038 99822:895.104   Data:  68 08
T1038 99822:895.104 - 0.390ms returns 0
T1038 99822:936.064 JLINK_ReadMemHW(0x0000AA34, 0x0001 Bytes, ...)
T1038 99822:936.064   CPU_ReadMem(1 bytes @ 0x0000AA34)
T1038 99822:936.064   Data:  00
T1038 99822:936.064 - 0.604ms returns 0
T1038 99822:977.024 JLINK_ReadReg(R15 (PC))
T1038 99822:977.024 - 0.058ms returns 0x0000330C
T1038 99822:977.024 JLINK_GetNumBPUnits(Type = 0xFFFFFF02)
T1038 99822:977.024 - 0.119ms returns 0x06
T1038 99822:977.024 JLINK_SetBPEx(Addr = 0x0000AA34, Type = 0xFFFFFFF2)
T1038 99822:977.024 - 0.011ms returns 0x00000001
T1038 99822:977.024 JLINK_GetBPInfo(BPHandle = 1)
T1038 99822:977.024 - 0.008ms returns 0x0
T1038 99822:977.024 JLINK_Go()
T1038 99822:977.024   CPU_WriteMem(4 bytes @ 0xE0002000)
T1038 99822:977.024   CPU_ReadMem(4 bytes @ 0xE0001000)
T1038 99822:977.024   CPU_WriteMem(4 bytes @ 0xE000ED30)
T1038 99822:977.024   CPU_WriteMem(4 bytes @ 0xE0002008)
T1038 99822:977.024   CPU_WriteMem(4 bytes @ 0xE000200C)
T1038 99822:977.024   CPU_WriteMem(4 bytes @ 0xE0002010)
T1038 99822:977.024   CPU_WriteMem(4 bytes @ 0xE0002014)
T1038 99822:977.024   CPU_WriteMem(4 bytes @ 0xE0002018)
T1038 99822:977.024   CPU_WriteMem(4 bytes @ 0xE000201C)
T1038 99822:985.216   CPU_WriteMem(4 bytes @ 0xE0001004)
T1038 99822:985.216   Memory map 'after startup completion point' is active
T1038 99822:985.216 - 3.920ms 
T909C 99822:985.216 JLINK_IsHalted()
T909C 99822:985.216 - 0.445ms returns FALSE
T909C 99823:009.792 JLINK_IsHalted()
T909C 99823:009.792 - 3.112ms returns TRUE
T909C 99823:009.792 JLINK_GetMOEs(...)
T909C 99823:009.792   CPU_ReadMem(4 bytes @ 0xE000ED30)
T909C 99823:009.792 - 0.383ms returns 0x01
T909C 99823:009.792 JLINK_ReadReg(R15 (PC))
T909C 99823:009.792 - 0.009ms returns 0x0000AA34
T1038 99823:017.984 JLINK_ReadReg(R15 (PC))
T1038 99823:017.984 - 0.025ms returns 0x0000AA34
T1038 99823:017.984 JLINK_ReadReg(R13 (SP))
T1038 99823:017.984 - 0.008ms returns 0x20010860
T1038 99823:017.984 JLINK_ReadMemHW(0x0000AA34, 0x0004 Bytes, ...)
T1038 99823:017.984   CPU_ReadMem(4 bytes @ 0x0000AA34)
T1038 99823:017.984   Data:  00 B5 23 4B
T1038 99823:017.984 - 0.413ms returns 0
T1038 99823:042.560 JLINK_WriteU32(0xE000EDFC, 0x01000000)
T1038 99823:042.560   Debug reg: DEMCR
T1038 99823:042.560   CPU_WriteMem(4 bytes @ 0xE000EDFC)
T1038 99823:042.560 - 0.961ms returns 0 (0x00000000)
T1038 99823:042.560 JLINK_ReadMem(0xE0001000, 0x4 Bytes, ...)
T1038 99823:042.560   CPU_ReadMem(4 bytes @ 0xE0001000)
T1038 99823:042.560   Data:  01 00 00 40
T1038 99823:042.560   Debug reg: DWT_CTRL
T1038 99823:042.560 - 0.402ms returns 0
T1038 99823:042.560 JLINK_WriteU32(0xE0001000, 0x40000001)
T1038 99823:042.560   Debug reg: DWT_CTRL
T1038 99823:042.560   CPU_WriteMem(4 bytes @ 0xE0001000)
T1038 99823:042.560 - 0.431ms returns 0 (0x00000000)
T1038 99823:042.560 JLINK_WriteU32(0xE0001028, 0x00000100)
T1038 99823:042.560   Debug reg: DWT_FUNC[0]
T1038 99823:042.560 - 0.023ms returns 0 (0x00000000)
T1038 99823:042.560 JLINK_ReadMem(0xE0001028, 0x4 Bytes, ...)
T1038 99823:042.560   CPU_WriteMem(4 bytes @ 0xE0001028)
T1038 99823:042.560   CPU_ReadMem(4 bytes @ 0xE0001028)
T1038 99823:042.560   Data:  00 00 00 00
T1038 99823:042.560   Debug reg: DWT_FUNC[0]
T1038 99823:042.560 - 0.794ms returns 0
T1038 99823:042.560 JLINK_WriteU32(0xE0001024, 0x0000001F)
T1038 99823:042.560   Debug reg: DWT_MASK[0]
T1038 99823:042.560 - 0.024ms returns 0 (0x00000000)
T1038 99823:042.560 JLINK_ReadMem(0xE0001024, 0x4 Bytes, ...)
T1038 99823:042.560   CPU_WriteMem(4 bytes @ 0xE0001024)
T1038 99823:042.560   CPU_ReadMem(4 bytes @ 0xE0001024)
T1038 99823:042.560   Data:  0F 00 00 00
T1038 99823:042.560   Debug reg: DWT_MASK[0]
T1038 99823:042.560 - 0.737ms returns 0
T1038 99823:042.560 JLINK_WriteU32(0xE0001038, 0x00000100)
T1038 99823:042.560   Debug reg: DWT_FUNC[1]
T1038 99823:042.560 - 0.022ms returns 0 (0x00000000)
T1038 99823:042.560 JLINK_ReadMem(0xE0001038, 0x4 Bytes, ...)
T1038 99823:042.560   CPU_WriteMem(4 bytes @ 0xE0001038)
T1038 99823:042.560   CPU_ReadMem(4 bytes @ 0xE0001038)
T1038 99823:042.560   Data:  00 03 00 00
T1038 99823:042.560   Debug reg: DWT_FUNC[1]
T1038 99823:042.560 - 0.719ms returns 0
T1038 99823:042.560 JLINK_WriteU32(0xE0001034, 0x0000001F)
T1038 99823:042.560   Debug reg: DWT_MASK[1]
T1038 99823:042.560 - 0.024ms returns 0 (0x00000000)
T1038 99823:042.560 JLINK_ReadMem(0xE0001034, 0x4 Bytes, ...)
T1038 99823:042.560   CPU_WriteMem(4 bytes @ 0xE0001034)
T1038 99823:050.752   CPU_ReadMem(4 bytes @ 0xE0001034)
T1038 99823:050.752   Data:  0F 00 00 00
T1038 99823:050.752   Debug reg: DWT_MASK[1]
T1038 99823:050.752 - 0.748ms returns 0
T1038 99823:050.752 JLINK_WriteU32(0xE0001048, 0x00000100)
T1038 99823:050.752   Debug reg: DWT_FUNC[2]
T1038 99823:050.752 - 0.022ms returns 0 (0x00000000)
T1038 99823:050.752 JLINK_ReadMem(0xE0001048, 0x4 Bytes, ...)
T1038 99823:050.752   CPU_WriteMem(4 bytes @ 0xE0001048)
T1038 99823:050.752   CPU_ReadMem(4 bytes @ 0xE0001048)
T1038 99823:050.752   Data:  00 00 00 00
T1038 99823:050.752   Debug reg: DWT_FUNC[2]
T1038 99823:050.752 - 0.952ms returns 0
T1038 99823:050.752 JLINK_WriteU32(0xE0001044, 0x0000001F)
T1038 99823:050.752   Debug reg: DWT_MASK[2]
T1038 99823:050.752 - 0.021ms returns 0 (0x00000000)
T1038 99823:050.752 JLINK_ReadMem(0xE0001044, 0x4 Bytes, ...)
T1038 99823:050.752   CPU_WriteMem(4 bytes @ 0xE0001044)
T1038 99823:050.752   CPU_ReadMem(4 bytes @ 0xE0001044)
T1038 99823:050.752   Data:  0F 00 00 00
T1038 99823:050.752   Debug reg: DWT_MASK[2]
T1038 99823:050.752 - 0.871ms returns 0
T1038 99823:050.752 JLINK_WriteU32(0xE0001058, 0x00000100)
T1038 99823:050.752   Debug reg: DWT_FUNC[3]
T1038 99823:050.752 - 0.021ms returns 0 (0x00000000)
T1038 99823:050.752 JLINK_ReadMem(0xE0001058, 0x4 Bytes, ...)
T1038 99823:050.752   CPU_WriteMem(4 bytes @ 0xE0001058)
T1038 99823:050.752   CPU_ReadMem(4 bytes @ 0xE0001058)
T1038 99823:050.752   Data:  00 00 00 00
T1038 99823:050.752   Debug reg: DWT_FUNC[3]
T1038 99823:050.752 - 0.921ms returns 0
T1038 99823:050.752 JLINK_WriteU32(0xE0001054, 0x0000001F)
T1038 99823:050.752   Debug reg: DWT_MASK[3]
T1038 99823:050.752 - 0.023ms returns 0 (0x00000000)
T1038 99823:050.752 JLINK_ReadMem(0xE0001054, 0x4 Bytes, ...)
T1038 99823:050.752   CPU_WriteMem(4 bytes @ 0xE0001054)
T1038 99823:050.752   CPU_ReadMem(4 bytes @ 0xE0001054)
T1038 99823:050.752   Data:  0F 00 00 00
T1038 99823:050.752   Debug reg: DWT_MASK[3]
T1038 99823:050.752 - 0.777ms returns 0
T1038 99823:050.752 JLINK_WriteU32(0xE0001020, 0x00000000)
T1038 99823:050.752   Debug reg: DWT_COMP[0]
T1038 99823:050.752 - 0.029ms returns 0 (0x00000000)
T1038 99823:050.752 JLINK_WriteU32(0xE0001024, 0x00000000)
T1038 99823:050.752   Debug reg: DWT_MASK[0]
T1038 99823:050.752 - 0.022ms returns 0 (0x00000000)
T1038 99823:050.752 JLINK_WriteU32(0xE0001028, 0x00000000)
T1038 99823:050.752   Debug reg: DWT_FUNC[0]
T1038 99823:050.752 - 0.022ms returns 0 (0x00000000)
T1038 99823:050.752 JLINK_WriteU32(0xE0001030, 0x00000000)
T1038 99823:050.752   Debug reg: DWT_COMP[1]
T1038 99823:050.752 - 0.022ms returns 0 (0x00000000)
T1038 99823:050.752 JLINK_WriteU32(0xE0001034, 0x00000000)
T1038 99823:050.752   Debug reg: DWT_MASK[1]
T1038 99823:050.752 - 0.022ms returns 0 (0x00000000)
T1038 99823:050.752 JLINK_WriteU32(0xE0001038, 0x00000000)
T1038 99823:050.752   Debug reg: DWT_FUNC[1]
T1038 99823:050.752 - 0.022ms returns 0 (0x00000000)
T1038 99823:050.752 JLINK_WriteU32(0xE0001040, 0x00000000)
T1038 99823:050.752   Debug reg: DWT_COMP[2]
T1038 99823:050.752 - 0.022ms returns 0 (0x00000000)
T1038 99823:050.752 JLINK_WriteU32(0xE0001044, 0x00000000)
T1038 99823:050.752   Debug reg: DWT_MASK[2]
T1038 99823:050.752 - 0.022ms returns 0 (0x00000000)
T1038 99823:050.752 JLINK_WriteU32(0xE0001048, 0x00000000)
T1038 99823:050.752   Debug reg: DWT_FUNC[2]
T1038 99823:050.752 - 0.022ms returns 0 (0x00000000)
T1038 99823:050.752 JLINK_WriteU32(0xE0001050, 0x00000000)
T1038 99823:050.752   Debug reg: DWT_COMP[3]
T1038 99823:050.752 - 0.021ms returns 0 (0x00000000)
T1038 99823:050.752 JLINK_WriteU32(0xE0001054, 0x00000000)
T1038 99823:050.752   Debug reg: DWT_MASK[3]
T1038 99823:050.752 - 0.021ms returns 0 (0x00000000)
T1038 99823:050.752 JLINK_WriteU32(0xE0001058, 0x00000000)
T1038 99823:050.752   Debug reg: DWT_FUNC[3]
T1038 99823:050.752 - 0.023ms returns 0 (0x00000000)
T1038 99823:050.752 JLINK_GetBPInfo(BPHandle = 1)
T1038 99823:050.752 - 0.008ms returns 0x0
T1038 99823:050.752 JLINK_ClrBPEx(BPHandle = 0x00000001)
T1038 99823:050.752 - 0.008ms returns 0x00
T1038 99823:050.752 JLINK_ReadReg(R15 (PC))
T1038 99823:050.752 - 0.008ms returns 0x0000AA34
T1038 99823:050.752 JLINK_Go()
T1038 99823:050.752   CPU_ReadMem(4 bytes @ 0xE0001000)
T1038 99823:050.752   CPU_WriteMem(4 bytes @ 0xE000ED30)
T1038 99823:050.752   CPU_WriteMem(4 bytes @ 0xE0001020)
T1038 99823:050.752   CPU_WriteMem(4 bytes @ 0xE0001030)
T1038 99823:050.752   CPU_WriteMem(4 bytes @ 0xE0001040)
T1038 99823:050.752   CPU_WriteMem(4 bytes @ 0xE0001050)
T1038 99823:050.752   CPU_WriteMem(4 bytes @ 0xE0001024)
T1038 99823:050.752   CPU_WriteMem(4 bytes @ 0xE0001034)
T1038 99823:050.752   CPU_WriteMem(4 bytes @ 0xE0001044)
T1038 99823:050.752   CPU_WriteMem(4 bytes @ 0xE0001054)
T1038 99823:050.752   CPU_WriteMem(4 bytes @ 0xE0001028)
T1038 99823:050.752   CPU_WriteMem(4 bytes @ 0xE0001038)
T1038 99823:050.752   CPU_WriteMem(4 bytes @ 0xE0001048)
T1038 99823:050.752   CPU_WriteMem(4 bytes @ 0xE0001058)
T1038 99823:050.752   CPU_WriteMem(4 bytes @ 0xE0002008)
T1038 99823:058.944 - 4.414ms 
T909C 99823:058.944 JLINK_IsHalted()
T909C 99823:058.944 - 0.334ms returns FALSE
T909C 99823:099.904 JLINK_IsHalted()
T909C 99823:099.904 - 0.397ms returns FALSE
T909C 99823:263.744 JLINK_IsHalted()
T909C 99823:263.744 - 0.521ms returns FALSE
T909C 99823:468.544 JLINK_IsHalted()
T909C 99823:468.544 - 0.604ms returns FALSE
T909C 99823:665.152 JLINK_IsHalted()
T909C 99823:665.152 - 0.451ms returns FALSE
T909C 99823:861.760 JLINK_IsHalted()
T909C 99823:861.760 - 0.425ms returns FALSE
T909C 99824:066.560 JLINK_IsHalted()
T909C 99824:066.560 - 0.398ms returns FALSE
T909C 99824:271.360 JLINK_IsHalted()
T909C 99824:271.360 - 0.379ms returns FALSE
T909C 99824:476.160 JLINK_IsHalted()
T909C 99824:476.160 - 0.505ms returns FALSE
T909C 99824:672.768 JLINK_IsHalted()
T909C 99824:672.768 - 0.519ms returns FALSE
T909C 99824:877.568 JLINK_IsHalted()
T909C 99824:877.568 - 0.596ms returns FALSE
T909C 99825:074.176 JLINK_IsHalted()
T909C 99825:074.176 - 0.375ms returns FALSE
T909C 99825:278.976 JLINK_IsHalted()
T909C 99825:278.976 - 0.464ms returns FALSE
T909C 99825:491.968 JLINK_IsHalted()
T909C 99825:491.968 - 0.447ms returns FALSE
T1038 99825:631.232 JLINK_Halt()
T1038 99825:639.424 - 2.999ms returns 0x00
T909C 99825:696.768 JLINK_IsHalted()
T909C 99825:696.768 - 0.051ms returns TRUE
T909C 99825:696.768 JLINK_GetMOEs(...)
T909C 99825:696.768   CPU_ReadMem(4 bytes @ 0xE000ED30)
T909C 99825:696.768 - 0.418ms returns 0x01
T909C 99825:696.768 JLINK_ReadReg(R15 (PC))
T909C 99825:696.768 - 0.011ms returns 0x00006F84
T909C 99825:893.376 JLINK_IsHalted()
T909C 99825:893.376 - 0.063ms returns TRUE
T6B88 99825:893.376 JLINK_ResetPullsRESET(ON)
T6B88 99825:893.376 - 0.032ms 
T6B88 99825:893.376 JLINK_ResetNoHalt()
T6B88 99825:893.376   InitTarget() start
T6B88 99825:893.376    J-Link Script File: Executing InitTarget()
T6B88 99825:893.376   SWD selected. Executing JTAG -> SWD switching sequence.
T6B88 99825:901.568   DAP initialized successfully.
T6B88 99825:901.568   InitTarget() end - Took 8.06ms
T6B88 99825:901.568   Found SW-DP with ID 0x2BA01477
T6B88 99825:909.760   DPIDR: 0x2BA01477
T6B88 99825:909.760   CoreSight SoC-400 or earlier
T6B88 99825:909.760   AP map detection skipped. Manually configured AP map found.
T6B88 99825:909.760   AP[0]: AHB-AP (IDR: Not set, ADDR: 0x00000000)
T6B88 99825:909.760   AP[0]: Core found
T6B88 99825:909.760   AP[0]: AHB-AP ROM base: 0x41003000
T6B88 99825:909.760   CPUID register: 0x410FC241. Implementer code: 0x41 (ARM)
T6B88 99825:909.760   Found Cortex-M4 r0p1, Little endian.
T6B88 99825:909.760   -- Max. mem block: 0x000027E0
T6B88 99825:909.760   CPU_ReadMem(4 bytes @ 0xE000EDF0)
T6B88 99825:909.760   CPU_ReadMem(4 bytes @ 0xE0002000)
T6B88 99825:909.760   FPUnit: 6 code (BP) slots and 2 literal slots
T6B88 99825:909.760   CPU_ReadMem(4 bytes @ 0xE0001000)
T6B88 99825:909.760   CPU_ReadMem(4 bytes @ 0xE000ED88)
T6B88 99825:909.760   CPU_WriteMem(4 bytes @ 0xE000ED88)
T6B88 99825:917.952   CPU_ReadMem(4 bytes @ 0xE000ED88)
T6B88 99825:917.952   CPU_WriteMem(4 bytes @ 0xE000ED88)
T6B88 99825:917.952   CoreSight components:
T6B88 99825:917.952   ROMTbl[0] @ 41003000
T6B88 99825:917.952   CPU_ReadMem(64 bytes @ 0x41003000)
T6B88 99825:917.952   CPU_ReadMem(32 bytes @ 0xE00FFFE0)
T6B88 99825:917.952   [0][0]: E00FF000 CID B105100D PID 000BB4C4 ROM Table
T6B88 99825:917.952   ROMTbl[1] @ E00FF000
T6B88 99825:917.952   CPU_ReadMem(64 bytes @ 0xE00FF000)
T6B88 99825:917.952   CPU_ReadMem(32 bytes @ 0xE000EFE0)
T6B88 99825:917.952   [1][0]: E000E000 CID B105E00D PID 000BB00C SCS-M7
T6B88 99825:917.952   CPU_ReadMem(32 bytes @ 0xE0001FE0)
T6B88 99825:917.952   [1][1]: E0001000 CID B105E00D PID 003BB002 DWT
T6B88 99825:917.952   CPU_ReadMem(32 bytes @ 0xE0002FE0)
T6B88 99825:917.952   [1][2]: E0002000 CID B105E00D PID 002BB003 FPB
T6B88 99825:917.952   CPU_ReadMem(32 bytes @ 0xE0000FE0)
T6B88 99825:917.952   [1][3]: E0000000 CID B105E00D PID 003BB001 ITM
T6B88 99825:917.952   CPU_ReadMem(32 bytes @ 0xE0040FE0)
T6B88 99825:926.144   [1][4]: E0040000 CID B105900D PID 000BB9A1 TPIU
T6B88 99825:926.144   CPU_ReadMem(32 bytes @ 0xE0041FE0)
T6B88 99825:926.144   [1][5]: E0041000 CID B105900D PID 000BB925 ETM
T6B88 99825:926.144   CPU_ReadMem(32 bytes @ 0xE0042FE0)
T6B88 99825:926.144   [1][6]: E0042000 CID B105900D PID 003BB907 ETB
T6B88 99825:926.144   JLINK_Reset()
T6B88 99825:926.144     Memory map 'before startup completion point' is active
T6B88 99825:926.144     JLINK_GetResetTypeDesc
T6B88 99825:926.144     - 0.008ms 
T6B88 99825:926.144     Reset type: NORMAL (https://wiki.segger.com/J-Link_Reset_Strategies)
T6B88 99825:926.144     CPU_WriteMem(4 bytes @ 0xE000EDF0)
T6B88 99825:926.144     CPU_WriteMem(4 bytes @ 0xE000EDFC)
T6B88 99825:926.144     Reset: Halt core after reset via DEMCR.VC_CORERESET.
T6B88 99825:926.144     Reset: Reset device via AIRCR.SYSRESETREQ.
T6B88 99825:926.144     CPU_WriteMem(4 bytes @ 0xE000ED0C)
T6B88 99825:975.296     CPU_ReadMem(4 bytes @ 0xE000EDF0)
T6B88 99825:975.296     CPU_ReadMem(4 bytes @ 0xE000EDF0)
T6B88 99825:975.296     CPU_WriteMem(4 bytes @ 0xE000EDFC)
T6B88 99825:983.488     CPU_ReadMem(4 bytes @ 0xE000EDF0)
T6B88 99825:991.680     CPU_WriteMem(4 bytes @ 0xE0002000)
T6B88 99825:991.680     CPU_ReadMem(4 bytes @ 0xE000EDFC)
T6B88 99825:991.680     CPU_ReadMem(4 bytes @ 0xE0001000)
T6B88 99825:991.680   - 67.066ms 
T6B88 99825:991.680   JLINK_Go()
T6B88 99825:991.680     CPU_ReadMem(4 bytes @ 0xE0001000)
T6B88 99825:991.680     CPU_WriteMem(4 bytes @ 0xE0002008)
T6B88 99825:991.680     CPU_WriteMem(4 bytes @ 0xE000200C)
T6B88 99825:991.680     CPU_WriteMem(4 bytes @ 0xE0002010)
T6B88 99825:991.680     CPU_WriteMem(4 bytes @ 0xE0002014)
T6B88 99825:991.680     CPU_WriteMem(4 bytes @ 0xE0002018)
T6B88 99825:991.680     CPU_WriteMem(4 bytes @ 0xE000201C)
T6B88 99825:991.680     CPU_WriteMem(4 bytes @ 0xE0001004)
T6B88 99825:991.680     Memory map 'after startup completion point' is active
T6B88 99825:991.680   - 3.230ms 
T6B88 99825:991.680 - 94.310ms 
T6B88 99825:999.872 JLINK_Close()
T6B88 99825:999.872   CPU is running
T6B88 99825:999.872   CPU_WriteMem(4 bytes @ 0xE0002008)
T6B88 99825:999.872   CPU is running
T6B88 99825:999.872   CPU_WriteMem(4 bytes @ 0xE000200C)
T6B88 99825:999.872   CPU is running
T6B88 99825:999.872   CPU_WriteMem(4 bytes @ 0xE0002010)
T6B88 99825:999.872   CPU is running
T6B88 99825:999.872   CPU_WriteMem(4 bytes @ 0xE0002014)
T6B88 99825:999.872   CPU is running
T6B88 99825:999.872   CPU_WriteMem(4 bytes @ 0xE0002018)
T6B88 99826:008.064   CPU is running
T6B88 99826:008.064   CPU_WriteMem(4 bytes @ 0xE000201C)
T6B88 99826:024.448 - 23.530ms
T6B88 99826:024.448   
T6B88 99826:024.448   Closed
